
T1C688 000:343 SEGGER J-Link V4.50l Log File (0001ms, 0344ms total)
T1C688 000:343 DLL Compiled: Jul  9 2012 15:02:49 (0001ms, 0344ms total)
T1C688 000:343 Logging started @ 2015-11-05 10:09 (0001ms, 0344ms total)
T1C688 000:344 JLINK_SetWarnOutHandler(...) (0000ms, 0344ms total)
T1C688 000:344 JLINK_OpenEx(...)
Firmware: J-Link ARM V8 compiled Jun 19 2012 11:29:30
Hardware: V8.00
S/N: 17935099
Feature(s): RDI,FlashDL,FlashBP,JFlash  returns O.K. (0032ms, 0376ms total)
T1C688 000:376 JLINK_SetErrorOutHandler(...) (0000ms, 0376ms total)
T1C688 000:376 JLINK_ExecCommand("Device = STM32F103C8", ...)
                JLINK_ExecCommand("map ram 0x20000000 - 0x20004FFF", ...)  returns 0x00 (0000ms, 0000ms total)
                JLINK_AddMirrorAreaEx(Addr = 0x00000000, Size = 0x00000000) (0000ms, 0000ms total)
              Device "STM32F103C8" selected (64 KB flash, 20 KB RAM).  returns 0x00 (0023ms, 0399ms total)
T1C688 000:399 JLINK_ExecCommand("ProjectFile = "E:\Docum\stm32lcd\User-v2\JLinkSettings.ini"", ...)  returns 0x00 (0001ms, 0400ms total)
T1C688 000:403 JLINK_ExecCommand("DisableConnectionTimeout", ...)  returns 0x00 (0000ms, 0400ms total)
T1C688 000:403 JLINK_TIF_Select(JLINKARM_TIF_SWD)  returns 0x00 (0004ms, 0404ms total)
T1C688 000:407 JLINK_SetSpeed(5000) (0001ms, 0405ms total)
T1C688 000:408 JLINK_GetHardwareVersion()  returns 0x13880 (0000ms, 0405ms total)
T1C688 000:408 JLINK_GetDLLVersion()  returns 45012 (0000ms, 0405ms total)
T1C688 000:408 JLINK_GetFirmwareString(...) (0000ms, 0405ms total)
T1C688 000:412 JLINK_GetDLLVersion()  returns 45012 (0000ms, 0405ms total)
T1C688 000:412 JLINK_GetCompileDateTime() (0000ms, 0405ms total)
T1C688 000:414 JLINK_GetFirmwareString(...) (0000ms, 0405ms total)
T1C688 000:415 JLINK_GetHardwareVersion()  returns 0x13880 (0000ms, 0405ms total)
T1C688 000:424 JLINK_GetId() >0x108 TIF>Found SWD-DP with ID 0x1BA01477 >0x0D TIF> >0x28 TIF> >0x0D TIF> >0x28 TIF> >0x0D TIF> >0x21 TIF> >0x0D TIF> >0x28 TIF> >0x0D TIF> >0x28 TIF> >0x0D TIF> >0x28 TIF> >0x0D TIF> >0x21 TIF> >0x0D TIF> >0x21 TIF> >0x0D TIF> >0x28 TIF> >0x0D TIF> >0x21 TIF> >0x0D TIF> >0x21 TIF> >0x0D TIF> >0x28 TIF> >0x0D TIF> >0x28 TIF> >0x108 TIF>Found SWD-DP with ID 0x1BA01477 >0x0D TIF> >0x21 TIF> >0x0D TIF> >0x28 TIF> >0x0D TIF> >0x28 TIF> >0x0D TIF> >0x21 TIF> >0x0D TIF>
 >0x21 TIF> >0x0D TIF> >0x28 TIF> >0x0D TIF> >0x21 TIF> >0x0D TIF> >0x21 TIF> >0x0D TIF> >0x21 TIF> >0x0D TIF> >0x21 TIF> >0x0D TIF> >0x21 TIF> >0x0D TIF> >0x28 TIF> >0x0D TIF> >0x28 TIF> >0x0D TIF> >0x21 TIF> >0x0D TIF> >0x21 TIF> >0x0D TIF> >0x28 TIF> >0x0D TIF> >0x21 TIF> >0x0D TIF> >0x21 TIF> >0x0D TIF> >0x28 TIF> >0x0D TIF> >0x21 TIF> >0x0D TIF> >0x21 TIF> >0x0D TIF> >0x28 TIF> >0x0D TIF> >0x28 TIF> >0x0D TIF> >0x28 TIF> >0x0D TIF> >0x21 TIF> >0x0D TIF> >0x21 TIF> >0x0D TIF> >0x28 TIF> >0x0D TIF>
 >0x28 TIF> >0x0D TIF> >0x28 TIF> >0x0D TIF> >0x21 TIF> >0x0D TIF> >0x21 TIF> >0x0D TIF> >0x21 TIF>TPIU fitted. >0x0D TIF> >0x28 TIF> >0x0D TIF> >0x21 TIF> >0x0D TIF> >0x21 TIF> >0x0D TIF> >0x28 TIF> >0x0D TIF> >0x21 TIF> >0x0D TIF> >0x21 TIF>FPUnit: 6 code (BP) slots and 2 literal slots >0x0D TIF> >0x28 TIF> >0x0D TIF> >0x21 TIF> >0x0D TIF> >0x21 TIF> >0x0D TIF> >0x28 TIF> >0x0D TIF> >0x21 TIF> >0x0D TIF> >0x21 TIF> >0x0D TIF> >0x28 TIF> >0x0D TIF> >0x21 TIF> >0x0D TIF> >0x21 TIF> >0x0D TIF> >0x28 TIF>
 >0x0D TIF> >0x21 TIF> >0x0D TIF> >0x21 TIF>Found Cortex-M3 r1p1, Little endian. >0x0D TIF> >0x21 TIF>  returns 0x1BA01477 (0139ms, 0544ms total)
T1C688 000:563 JLINK_GetDebugInfo(0x100) -- Value=0xE00FF003  returns 0x00 (0000ms, 0544ms total)
T1C688 000:567 JLINK_ReadMem (0xE00FFFF0, 0x0010 Bytes, ...) -- CPU is running -- CPU_ReadMem(16 bytes @ 0xE00FFFF0) -- Data:  0D 00 00 00 10 00 00 00 05 00 00 00 B1 00 00 00  returns 0x00 (0002ms, 0546ms total)
T1C688 000:569 JLINK_ReadMem (0xE00FFFD0, 0x0020 Bytes, ...) -- CPU is running -- CPU_ReadMem(32 bytes @ 0xE00FFFD0) -- Data:  00 00 00 00 00 00 00 00 00 00 00 00 00 00 00 00 ...  returns 0x00 (0002ms, 0548ms total)
T1C688 000:571 JLINK_ReadMem (0xE00FF000, 0x0018 Bytes, ...) -- CPU is running -- CPU_ReadMem(24 bytes @ 0xE00FF000) -- Data:  03 F0 F0 FF 03 20 F0 FF 03 30 F0 FF 03 10 F0 FF ...  returns 0x00 (0001ms, 0549ms total)
T1C688 000:572 JLINK_ReadMemU32(0xE000ED00, 0x0001 Items, ...) -- CPU is running -- CPU_ReadMem(4 bytes @ 0xE000ED00) -- Data:  31 C2 1F 41  returns 0x01 (0002ms, 0551ms total)
T1C688 000:574 JLINK_SetResetType(JLINKARM_RESET_TYPE_NORMAL)  returns JLINKARM_RESET_TYPE_NORMAL (0000ms, 0551ms total)
T1C688 000:574 JLINK_Reset() -- CPU is running -- CPU_WriteMem(4 bytes @ 0xE000EDF0) -- CPU is running -- CPU_WriteMem(4 bytes @ 0xE000EDFC) >0x35 TIF> -- CPU is running -- CPU_WriteMem(4 bytes @ 0xE000ED0C) -- CPU is running -- CPU_ReadMem(4 bytes @ 0xE000EDF0) -- CPU is running -- CPU_ReadMem(4 bytes @ 0xE000EDF0) -- CPU is running -- CPU_WriteMem(4 bytes @ 0xE000EDF0) -- CPU is running -- CPU_WriteMem(4 bytes @ 0xE000EDFC) -- CPU is running -- CPU_ReadMem(4 bytes @ 0xE000EDF0)
 -- CPU_WriteMem(4 bytes @ 0xE0002000) (0021ms, 0572ms total)
T1C688 000:595 JLINK_Halt()  returns 0x00 (0000ms, 0572ms total)
T1C688 000:595 JLINK_IsHalted()  returns TRUE (0000ms, 0572ms total)
T1C688 000:595 JLINK_ReadMemU32(0xE000EDF0, 0x0001 Items, ...) -- CPU_ReadMem(4 bytes @ 0xE000EDF0) -- Data:  03 00 03 00  returns 0x01 (0001ms, 0573ms total)
T1C688 000:596 JLINK_WriteU32(0xE000EDF0, 0xA05F0003) -- CPU_WriteMem(4 bytes @ 0xE000EDF0)  returns 0x00 (0001ms, 0574ms total)
T1C688 000:597 JLINK_WriteU32(0xE000EDFC, 0x01000000) -- CPU_WriteMem(4 bytes @ 0xE000EDFC)  returns 0x00 (0002ms, 0576ms total)
T1C688 000:607 JLINK_GetHWStatus(...)  returns 0x00 (0001ms, 0577ms total)
T1C688 000:615 JLINK_GetNumBPUnits(Type = 0xFFFFFF00)  returns 0x06 (0000ms, 0577ms total)
T1C688 000:615 JLINK_GetNumBPUnits(Type = 0xF0)  returns 0x2000 (0000ms, 0577ms total)
T1C688 000:615 JLINK_GetNumWPUnits()  returns 0x04 (0000ms, 0577ms total)
T1C688 000:621 JLINK_GetSpeed()  returns 0xFA0 (0000ms, 0577ms total)
T1C688 000:626 JLINK_ReadMemU32(0xE000E004, 0x0001 Items, ...) -- CPU_ReadMem(4 bytes @ 0xE000E004) -- Data:  01 00 00 00  returns 0x01 (0001ms, 0578ms total)
T1C688 000:627 JLINK_ReadMemU32(0xE000E004, 0x0001 Items, ...) -- CPU_ReadMem(4 bytes @ 0xE000E004) -- Data:  01 00 00 00  returns 0x01 (0001ms, 0579ms total)
T1C688 000:628 JLINK_WriteMem(0xE0001000, 0x001C Bytes, ...) -- Data:  01 00 00 00 00 00 00 00 00 00 00 00 00 00 00 00 ... -- CPU_WriteMem(28 bytes @ 0xE0001000)  returns 0x1C (0001ms, 0580ms total)
T1C688 000:629 JLINK_ReadMem (0xE0001000, 0x001C Bytes, ...) -- CPU_ReadMem(28 bytes @ 0xE0001000) -- Data:  01 00 00 40 00 00 00 00 00 00 00 00 00 00 00 00 ...  returns 0x00 (0002ms, 0582ms total)
T1C688 000:631 JLINK_Halt()  returns 0x00 (0000ms, 0582ms total)
T1C688 000:631 JLINK_IsHalted()  returns TRUE (0000ms, 0582ms total)
T1C688 000:634 JLINK_WriteMem(0x20000000, 0x0164 Bytes, ...) -- Data:  00 BE 0A E0 0D 78 2D 06 68 40 08 24 40 00 00 D3 ... -- CPU_WriteMem(356 bytes @ 0x20000000)  returns 0x164 (0004ms, 0586ms total)
T1C688 000:638 JLINK_WriteReg(R0, 0x08000000)  returns 0x00 (0000ms, 0586ms total)
T1C688 000:638 JLINK_WriteReg(R1, 0x007A1200)  returns 0x00 (0000ms, 0586ms total)
T1C688 000:638 JLINK_WriteReg(R2, 0x00000001)  returns 0x00 (0000ms, 0586ms total)
T1C688 000:638 JLINK_WriteReg(R3, 0x00000000)  returns 0x00 (0000ms, 0586ms total)
T1C688 000:638 JLINK_WriteReg(R4, 0x00000000)  returns 0x00 (0000ms, 0586ms total)
T1C688 000:638 JLINK_WriteReg(R5, 0x00000000)  returns 0x00 (0000ms, 0586ms total)
T1C688 000:638 JLINK_WriteReg(R6, 0x00000000)  returns 0x00 (0000ms, 0586ms total)
T1C688 000:638 JLINK_WriteReg(R7, 0x00000000)  returns 0x00 (0000ms, 0586ms total)
T1C688 000:638 JLINK_WriteReg(R8, 0x00000000)  returns 0x00 (0000ms, 0586ms total)
T1C688 000:638 JLINK_WriteReg(R9, 0x20000160)  returns 0x00 (0000ms, 0586ms total)
T1C688 000:638 JLINK_WriteReg(R10, 0x00000000)  returns 0x00 (0000ms, 0586ms total)
T1C688 000:638 JLINK_WriteReg(R11, 0x00000000)  returns 0x00 (0000ms, 0586ms total)
T1C688 000:638 JLINK_WriteReg(R12, 0x00000000)  returns 0x00 (0000ms, 0586ms total)
T1C688 000:638 JLINK_WriteReg(R13, 0x20000800)  returns 0x00 (0000ms, 0586ms total)
T1C688 000:638 JLINK_WriteReg(R14, 0x20000001)  returns 0x00 (0000ms, 0586ms total)
T1C688 000:638 JLINK_WriteReg(R15, 0x20000038)  returns 0x00 (0000ms, 0586ms total)
T1C688 000:638 JLINK_WriteReg(XPSR, 0x01000000)  returns 0x00 (0000ms, 0586ms total)
T1C688 000:638 JLINK_WriteReg(MSP, 0x20000800)  returns 0x00 (0000ms, 0586ms total)
T1C688 000:638 JLINK_WriteReg(PSP, 0x20000800)  returns 0x00 (0000ms, 0586ms total)
T1C688 000:638 JLINK_WriteReg(CFBP, 0x00000000)  returns 0x00 (0000ms, 0586ms total)
T1C688 000:638 JLINK_SetBPEx(Addr = 0x20000000, Type = 0xFFFFFFF2) -- CPU_ReadMem(2 bytes @ 0x20000000)  returns 0x00000001 (0001ms, 0587ms total)
T1C688 000:639 JLINK_Go() -- CPU_WriteMem(2 bytes @ 0x20000000) -- CPU_WriteMem(4 bytes @ 0xE0002008) -- CPU_WriteMem(4 bytes @ 0xE000200C) -- CPU_WriteMem(4 bytes @ 0xE0002010) -- CPU_WriteMem(4 bytes @ 0xE0002014) -- CPU_WriteMem(4 bytes @ 0xE0002018) -- CPU_WriteMem(4 bytes @ 0xE000201C) (0011ms, 0598ms total)
T1C688 000:650 JLINK_IsHalted() -- CPU_ReadMem(2 bytes @ 0x20000000)  returns TRUE (0004ms, 0602ms total)
T1C688 000:654 JLINK_ReadReg(R15)  returns 0x20000000 (0000ms, 0598ms total)
T1C688 000:654 JLINK_ClrBPEx(BPHandle = 0x00000001)  returns 0x00 (0000ms, 0598ms total)
T1C688 000:654 JLINK_ReadReg(R0)  returns 0x00000000 (0000ms, 0598ms total)
T1C688 000:655 JLINK_WriteReg(R0, 0x08000000)  returns 0x00 (0000ms, 0598ms total)
T1C688 000:655 JLINK_WriteReg(R1, 0x007A1200)  returns 0x00 (0000ms, 0598ms total)
T1C688 000:655 JLINK_WriteReg(R2, 0x00000001)  returns 0x00 (0000ms, 0598ms total)
T1C688 000:655 JLINK_WriteReg(R3, 0x00000000)  returns 0x00 (0000ms, 0598ms total)
T1C688 000:655 JLINK_WriteReg(R4, 0x00000000)  returns 0x00 (0000ms, 0598ms total)
T1C688 000:655 JLINK_WriteReg(R5, 0x00000000)  returns 0x00 (0000ms, 0598ms total)
T1C688 000:655 JLINK_WriteReg(R6, 0x00000000)  returns 0x00 (0000ms, 0598ms total)
T1C688 000:655 JLINK_WriteReg(R7, 0x00000000)  returns 0x00 (0000ms, 0598ms total)
T1C688 000:655 JLINK_WriteReg(R8, 0x00000000)  returns 0x00 (0000ms, 0598ms total)
T1C688 000:655 JLINK_WriteReg(R9, 0x20000160)  returns 0x00 (0000ms, 0598ms total)
T1C688 000:655 JLINK_WriteReg(R10, 0x00000000)  returns 0x00 (0000ms, 0598ms total)
T1C688 000:655 JLINK_WriteReg(R11, 0x00000000)  returns 0x00 (0000ms, 0598ms total)
T1C688 000:655 JLINK_WriteReg(R12, 0x00000000)  returns 0x00 (0000ms, 0598ms total)
T1C688 000:655 JLINK_WriteReg(R13, 0x20000800)  returns 0x00 (0000ms, 0598ms total)
T1C688 000:655 JLINK_WriteReg(R14, 0x20000001)  returns 0x00 (0000ms, 0598ms total)
T1C688 000:655 JLINK_WriteReg(R15, 0x2000007C)  returns 0x00 (0000ms, 0598ms total)
T1C688 000:655 JLINK_WriteReg(XPSR, 0x01000000)  returns 0x00 (0000ms, 0598ms total)
T1C688 000:655 JLINK_WriteReg(MSP, 0x20000800)  returns 0x00 (0000ms, 0598ms total)
T1C688 000:655 JLINK_WriteReg(PSP, 0x20000800)  returns 0x00 (0000ms, 0598ms total)
T1C688 000:655 JLINK_WriteReg(CFBP, 0x00000000)  returns 0x00 (0000ms, 0598ms total)
T1C688 000:655 JLINK_SetBPEx(Addr = 0x20000000, Type = 0xFFFFFFF2)  returns 0x00000002 (0000ms, 0598ms total)
T1C688 000:655 JLINK_Go() -- CPU_WriteMem(4 bytes @ 0xE0002008) -- CPU_WriteMem(4 bytes @ 0xE000200C) -- CPU_WriteMem(4 bytes @ 0xE0002010) -- CPU_WriteMem(4 bytes @ 0xE0002014) -- CPU_WriteMem(4 bytes @ 0xE0002018) -- CPU_WriteMem(4 bytes @ 0xE000201C) (0009ms, 0607ms total)
T1C688 000:664 JLINK_IsHalted()  returns FALSE (0001ms, 0608ms total)
T1C688 000:715 JLINK_IsHalted() -- CPU_ReadMem(2 bytes @ 0x20000000)  returns TRUE (0005ms, 0612ms total)
T1C688 000:720 JLINK_ReadReg(R15)  returns 0x20000000 (0000ms, 0607ms total)
T1C688 000:720 JLINK_ClrBPEx(BPHandle = 0x00000002)  returns 0x00 (0000ms, 0607ms total)
T1C688 000:720 JLINK_ReadReg(R0)  returns 0x00000000 (0000ms, 0607ms total)
T1C688 000:772 JLINK_WriteReg(R0, 0x00000001)  returns 0x00 (0000ms, 0607ms total)
T1C688 000:772 JLINK_WriteReg(R1, 0x007A1200)  returns 0x00 (0000ms, 0607ms total)
T1C688 000:772 JLINK_WriteReg(R2, 0x00000001)  returns 0x00 (0000ms, 0607ms total)
T1C688 000:772 JLINK_WriteReg(R3, 0x00000000)  returns 0x00 (0000ms, 0607ms total)
T1C688 000:772 JLINK_WriteReg(R4, 0x00000000)  returns 0x00 (0000ms, 0607ms total)
T1C688 000:772 JLINK_WriteReg(R5, 0x00000000)  returns 0x00 (0000ms, 0607ms total)
T1C688 000:772 JLINK_WriteReg(R6, 0x00000000)  returns 0x00 (0000ms, 0607ms total)
T1C688 000:773 JLINK_WriteReg(R7, 0x00000000)  returns 0x00 (0000ms, 0608ms total)
T1C688 000:773 JLINK_WriteReg(R8, 0x00000000)  returns 0x00 (0000ms, 0608ms total)
T1C688 000:773 JLINK_WriteReg(R9, 0x20000160)  returns 0x00 (0000ms, 0608ms total)
T1C688 000:773 JLINK_WriteReg(R10, 0x00000000)  returns 0x00 (0000ms, 0608ms total)
T1C688 000:773 JLINK_WriteReg(R11, 0x00000000)  returns 0x00 (0000ms, 0608ms total)
T1C688 000:773 JLINK_WriteReg(R12, 0x00000000)  returns 0x00 (0000ms, 0608ms total)
T1C688 000:773 JLINK_WriteReg(R13, 0x20000800)  returns 0x00 (0000ms, 0608ms total)
T1C688 000:773 JLINK_WriteReg(R14, 0x20000001)  returns 0x00 (0000ms, 0608ms total)
T1C688 000:773 JLINK_WriteReg(R15, 0x2000006A)  returns 0x00 (0000ms, 0608ms total)
T1C688 000:773 JLINK_WriteReg(XPSR, 0x01000000)  returns 0x00 (0000ms, 0608ms total)
T1C688 000:773 JLINK_WriteReg(MSP, 0x20000800)  returns 0x00 (0000ms, 0608ms total)
T1C688 000:773 JLINK_WriteReg(PSP, 0x20000800)  returns 0x00 (0000ms, 0608ms total)
T1C688 000:773 JLINK_WriteReg(CFBP, 0x00000000)  returns 0x00 (0000ms, 0608ms total)
T1C688 000:773 JLINK_SetBPEx(Addr = 0x20000000, Type = 0xFFFFFFF2)  returns 0x00000003 (0000ms, 0608ms total)
T1C688 000:773 JLINK_Go() -- CPU_WriteMem(4 bytes @ 0xE0002008) -- CPU_WriteMem(4 bytes @ 0xE000200C) -- CPU_WriteMem(4 bytes @ 0xE0002010) -- CPU_WriteMem(4 bytes @ 0xE0002014) -- CPU_WriteMem(4 bytes @ 0xE0002018) -- CPU_WriteMem(4 bytes @ 0xE000201C) (0011ms, 0619ms total)
T1C688 000:784 JLINK_IsHalted() -- CPU_ReadMem(2 bytes @ 0x20000000)  returns TRUE (0005ms, 0624ms total)
T1C688 000:789 JLINK_ReadReg(R15)  returns 0x20000000 (0000ms, 0619ms total)
T1C688 000:789 JLINK_ClrBPEx(BPHandle = 0x00000003)  returns 0x00 (0000ms, 0619ms total)
T1C688 000:789 JLINK_ReadReg(R0)  returns 0x00000000 (0000ms, 0619ms total)
T1C688 000:801 JLINK_WriteMem(0x20000000, 0x0164 Bytes, ...) -- Data:  00 BE 0A E0 0D 78 2D 06 68 40 08 24 40 00 00 D3 ... -- CPU_WriteMem(356 bytes @ 0x20000000)  returns 0x164 (0003ms, 0622ms total)
T1C688 000:805 JLINK_WriteReg(R0, 0x08000000)  returns 0x00 (0000ms, 0622ms total)
T1C688 000:805 JLINK_WriteReg(R1, 0x007A1200)  returns 0x00 (0000ms, 0622ms total)
T1C688 000:805 JLINK_WriteReg(R2, 0x00000002)  returns 0x00 (0000ms, 0622ms total)
T1C688 000:805 JLINK_WriteReg(R3, 0x00000000)  returns 0x00 (0000ms, 0622ms total)
T1C688 000:805 JLINK_WriteReg(R4, 0x00000000)  returns 0x00 (0000ms, 0622ms total)
T1C688 000:805 JLINK_WriteReg(R5, 0x00000000)  returns 0x00 (0000ms, 0622ms total)
T1C688 000:805 JLINK_WriteReg(R6, 0x00000000)  returns 0x00 (0000ms, 0622ms total)
T1C688 000:805 JLINK_WriteReg(R7, 0x00000000)  returns 0x00 (0000ms, 0622ms total)
T1C688 000:805 JLINK_WriteReg(R8, 0x00000000)  returns 0x00 (0000ms, 0622ms total)
T1C688 000:805 JLINK_WriteReg(R9, 0x20000160)  returns 0x00 (0000ms, 0622ms total)
T1C688 000:805 JLINK_WriteReg(R10, 0x00000000)  returns 0x00 (0000ms, 0622ms total)
T1C688 000:805 JLINK_WriteReg(R11, 0x00000000)  returns 0x00 (0000ms, 0622ms total)
T1C688 000:805 JLINK_WriteReg(R12, 0x00000000)  returns 0x00 (0000ms, 0622ms total)
T1C688 000:805 JLINK_WriteReg(R13, 0x20000800)  returns 0x00 (0000ms, 0622ms total)
T1C688 000:805 JLINK_WriteReg(R14, 0x20000001)  returns 0x00 (0000ms, 0622ms total)
T1C688 000:805 JLINK_WriteReg(R15, 0x20000038)  returns 0x00 (0000ms, 0622ms total)
T1C688 000:805 JLINK_WriteReg(XPSR, 0x01000000)  returns 0x00 (0000ms, 0622ms total)
T1C688 000:805 JLINK_WriteReg(MSP, 0x20000800)  returns 0x00 (0000ms, 0622ms total)
T1C688 000:805 JLINK_WriteReg(PSP, 0x20000800)  returns 0x00 (0000ms, 0622ms total)
T1C688 000:805 JLINK_WriteReg(CFBP, 0x00000000)  returns 0x00 (0001ms, 0623ms total)
T1C688 000:806 JLINK_SetBPEx(Addr = 0x20000000, Type = 0xFFFFFFF2) -- CPU_ReadMem(2 bytes @ 0x20000000)  returns 0x00000004 (0001ms, 0624ms total)
T1C688 000:807 JLINK_Go() -- CPU_WriteMem(2 bytes @ 0x20000000) -- CPU_WriteMem(4 bytes @ 0xE0002008) -- CPU_WriteMem(4 bytes @ 0xE000200C) -- CPU_WriteMem(4 bytes @ 0xE0002010) -- CPU_WriteMem(4 bytes @ 0xE0002014) -- CPU_WriteMem(4 bytes @ 0xE0002018) -- CPU_WriteMem(4 bytes @ 0xE000201C) (0012ms, 0636ms total)
T1C688 000:819 JLINK_IsHalted() -- CPU_ReadMem(2 bytes @ 0x20000000)  returns TRUE (0005ms, 0641ms total)
T1C688 000:824 JLINK_ReadReg(R15)  returns 0x20000000 (0000ms, 0636ms total)
T1C688 000:824 JLINK_ClrBPEx(BPHandle = 0x00000004)  returns 0x00 (0000ms, 0636ms total)
T1C688 000:824 JLINK_ReadReg(R0)  returns 0x00000000 (0000ms, 0636ms total)
T1C688 000:825 JLINK_WriteMem(0x20000164, 0x0400 Bytes, ...) -- Data:  60 08 00 20 01 01 00 08 CD 01 00 08 CF 01 00 08 ... -- CPU_WriteMem(1024 bytes @ 0x20000164)  returns 0x400 (0007ms, 0643ms total)
T1C688 000:832 JLINK_WriteReg(R0, 0x08000000)  returns 0x00 (0001ms, 0644ms total)
T1C688 000:833 JLINK_WriteReg(R1, 0x00000400)  returns 0x00 (0000ms, 0644ms total)
T1C688 000:833 JLINK_WriteReg(R2, 0x20000164)  returns 0x00 (0000ms, 0644ms total)
T1C688 000:833 JLINK_WriteReg(R3, 0x00000000)  returns 0x00 (0000ms, 0644ms total)
T1C688 000:833 JLINK_WriteReg(R4, 0x00000000)  returns 0x00 (0000ms, 0644ms total)
T1C688 000:833 JLINK_WriteReg(R5, 0x00000000)  returns 0x00 (0000ms, 0644ms total)
T1C688 000:833 JLINK_WriteReg(R6, 0x00000000)  returns 0x00 (0000ms, 0644ms total)
T1C688 000:833 JLINK_WriteReg(R7, 0x00000000)  returns 0x00 (0000ms, 0644ms total)
T1C688 000:833 JLINK_WriteReg(R8, 0x00000000)  returns 0x00 (0000ms, 0644ms total)
T1C688 000:833 JLINK_WriteReg(R9, 0x20000160)  returns 0x00 (0000ms, 0644ms total)
T1C688 000:833 JLINK_WriteReg(R10, 0x00000000)  returns 0x00 (0000ms, 0644ms total)
T1C688 000:833 JLINK_WriteReg(R11, 0x00000000)  returns 0x00 (0000ms, 0644ms total)
T1C688 000:833 JLINK_WriteReg(R12, 0x00000000)  returns 0x00 (0000ms, 0644ms total)
T1C688 000:833 JLINK_WriteReg(R13, 0x20000800)  returns 0x00 (0000ms, 0644ms total)
T1C688 000:833 JLINK_WriteReg(R14, 0x20000001)  returns 0x00 (0000ms, 0644ms total)
T1C688 000:833 JLINK_WriteReg(R15, 0x200000F4)  returns 0x00 (0000ms, 0644ms total)
T1C688 000:833 JLINK_WriteReg(XPSR, 0x01000000)  returns 0x00 (0000ms, 0644ms total)
T1C688 000:833 JLINK_WriteReg(MSP, 0x20000800)  returns 0x00 (0000ms, 0644ms total)
T1C688 000:833 JLINK_WriteReg(PSP, 0x20000800)  returns 0x00 (0000ms, 0644ms total)
T1C688 000:833 JLINK_WriteReg(CFBP, 0x00000000)  returns 0x00 (0000ms, 0644ms total)
T1C688 000:833 JLINK_SetBPEx(Addr = 0x20000000, Type = 0xFFFFFFF2)  returns 0x00000005 (0000ms, 0644ms total)
T1C688 000:833 JLINK_Go() -- CPU_WriteMem(4 bytes @ 0xE0002008) -- CPU_WriteMem(4 bytes @ 0xE000200C) -- CPU_WriteMem(4 bytes @ 0xE0002010) -- CPU_WriteMem(4 bytes @ 0xE0002014) -- CPU_WriteMem(4 bytes @ 0xE0002018) -- CPU_WriteMem(4 bytes @ 0xE000201C) (0010ms, 0654ms total)
T1C688 000:843 JLINK_IsHalted()  returns FALSE (0001ms, 0655ms total)
T1C688 000:894 JLINK_IsHalted() -- CPU_ReadMem(2 bytes @ 0x20000000)  returns TRUE (0005ms, 0659ms total)
T1C688 000:899 JLINK_ReadReg(R15)  returns 0x20000000 (0000ms, 0654ms total)
T1C688 000:899 JLINK_ClrBPEx(BPHandle = 0x00000005)  returns 0x00 (0000ms, 0654ms total)
T1C688 000:899 JLINK_ReadReg(R0)  returns 0x00000000 (0000ms, 0654ms total)
T1C688 000:900 JLINK_WriteMem(0x20000164, 0x0400 Bytes, ...) -- Data:  1D 4A 01 20 50 74 10 74 10 29 20 D0 0A DC 01 29 ... -- CPU_WriteMem(1024 bytes @ 0x20000164)  returns 0x400 (0008ms, 0662ms total)
T1C688 000:908 JLINK_WriteReg(R0, 0x08000400)  returns 0x00 (0000ms, 0662ms total)
T1C688 000:908 JLINK_WriteReg(R1, 0x00000400)  returns 0x00 (0000ms, 0662ms total)
T1C688 000:908 JLINK_WriteReg(R2, 0x20000164)  returns 0x00 (0000ms, 0662ms total)
T1C688 000:908 JLINK_WriteReg(R3, 0x00000000)  returns 0x00 (0000ms, 0662ms total)
T1C688 000:908 JLINK_WriteReg(R4, 0x00000000)  returns 0x00 (0000ms, 0662ms total)
T1C688 000:908 JLINK_WriteReg(R5, 0x00000000)  returns 0x00 (0000ms, 0662ms total)
T1C688 000:908 JLINK_WriteReg(R6, 0x00000000)  returns 0x00 (0001ms, 0663ms total)
T1C688 000:909 JLINK_WriteReg(R7, 0x00000000)  returns 0x00 (0000ms, 0663ms total)
T1C688 000:909 JLINK_WriteReg(R8, 0x00000000)  returns 0x00 (0000ms, 0663ms total)
T1C688 000:909 JLINK_WriteReg(R9, 0x20000160)  returns 0x00 (0000ms, 0663ms total)
T1C688 000:909 JLINK_WriteReg(R10, 0x00000000)  returns 0x00 (0000ms, 0663ms total)
T1C688 000:909 JLINK_WriteReg(R11, 0x00000000)  returns 0x00 (0000ms, 0663ms total)
T1C688 000:909 JLINK_WriteReg(R12, 0x00000000)  returns 0x00 (0000ms, 0663ms total)
T1C688 000:909 JLINK_WriteReg(R13, 0x20000800)  returns 0x00 (0000ms, 0663ms total)
T1C688 000:909 JLINK_WriteReg(R14, 0x20000001)  returns 0x00 (0000ms, 0663ms total)
T1C688 000:909 JLINK_WriteReg(R15, 0x200000F4)  returns 0x00 (0000ms, 0663ms total)
T1C688 000:909 JLINK_WriteReg(XPSR, 0x01000000)  returns 0x00 (0000ms, 0663ms total)
T1C688 000:909 JLINK_WriteReg(MSP, 0x20000800)  returns 0x00 (0000ms, 0663ms total)
T1C688 000:909 JLINK_WriteReg(PSP, 0x20000800)  returns 0x00 (0000ms, 0663ms total)
T1C688 000:909 JLINK_WriteReg(CFBP, 0x00000000)  returns 0x00 (0000ms, 0663ms total)
T1C688 000:909 JLINK_SetBPEx(Addr = 0x20000000, Type = 0xFFFFFFF2)  returns 0x00000006 (0000ms, 0663ms total)
T1C688 000:909 JLINK_Go() -- CPU_WriteMem(4 bytes @ 0xE0002008) -- CPU_WriteMem(4 bytes @ 0xE000200C) -- CPU_WriteMem(4 bytes @ 0xE0002010) -- CPU_WriteMem(4 bytes @ 0xE0002014) -- CPU_WriteMem(4 bytes @ 0xE0002018) -- CPU_WriteMem(4 bytes @ 0xE000201C) (0011ms, 0674ms total)
T1C688 000:920 JLINK_IsHalted()  returns FALSE (0001ms, 0675ms total)
T1C688 000:971 JLINK_IsHalted() -- CPU_ReadMem(2 bytes @ 0x20000000)  returns TRUE (0005ms, 0679ms total)
T1C688 000:976 JLINK_ReadReg(R15)  returns 0x20000000 (0000ms, 0674ms total)
T1C688 000:976 JLINK_ClrBPEx(BPHandle = 0x00000006)  returns 0x00 (0000ms, 0674ms total)
T1C688 000:976 JLINK_ReadReg(R0)  returns 0x00000000 (0000ms, 0674ms total)
T1C688 000:978 JLINK_WriteMem(0x20000164, 0x0400 Bytes, ...) -- Data:  A0 20 FF F7 AF FE 00 20 6D 49 25 39 0A 5C 22 44 ... -- CPU_WriteMem(1024 bytes @ 0x20000164)  returns 0x400 (0008ms, 0682ms total)
T1C688 000:986 JLINK_WriteReg(R0, 0x08000800)  returns 0x00 (0000ms, 0682ms total)
T1C688 000:986 JLINK_WriteReg(R1, 0x00000400)  returns 0x00 (0000ms, 0682ms total)
T1C688 000:986 JLINK_WriteReg(R2, 0x20000164)  returns 0x00 (0000ms, 0682ms total)
T1C688 000:986 JLINK_WriteReg(R3, 0x00000000)  returns 0x00 (0000ms, 0682ms total)
T1C688 000:986 JLINK_WriteReg(R4, 0x00000000)  returns 0x00 (0000ms, 0682ms total)
T1C688 000:986 JLINK_WriteReg(R5, 0x00000000)  returns 0x00 (0000ms, 0682ms total)
T1C688 000:986 JLINK_WriteReg(R6, 0x00000000)  returns 0x00 (0000ms, 0682ms total)
T1C688 000:986 JLINK_WriteReg(R7, 0x00000000)  returns 0x00 (0000ms, 0682ms total)
T1C688 000:986 JLINK_WriteReg(R8, 0x00000000)  returns 0x00 (0000ms, 0682ms total)
T1C688 000:986 JLINK_WriteReg(R9, 0x20000160)  returns 0x00 (0000ms, 0682ms total)
T1C688 000:986 JLINK_WriteReg(R10, 0x00000000)  returns 0x00 (0000ms, 0682ms total)
T1C688 000:986 JLINK_WriteReg(R11, 0x00000000)  returns 0x00 (0000ms, 0682ms total)
T1C688 000:986 JLINK_WriteReg(R12, 0x00000000)  returns 0x00 (0001ms, 0683ms total)
T1C688 000:987 JLINK_WriteReg(R13, 0x20000800)  returns 0x00 (0000ms, 0683ms total)
T1C688 000:987 JLINK_WriteReg(R14, 0x20000001)  returns 0x00 (0000ms, 0683ms total)
T1C688 000:987 JLINK_WriteReg(R15, 0x200000F4)  returns 0x00 (0000ms, 0683ms total)
T1C688 000:987 JLINK_WriteReg(XPSR, 0x01000000)  returns 0x00 (0000ms, 0683ms total)
T1C688 000:987 JLINK_WriteReg(MSP, 0x20000800)  returns 0x00 (0000ms, 0683ms total)
T1C688 000:987 JLINK_WriteReg(PSP, 0x20000800)  returns 0x00 (0000ms, 0683ms total)
T1C688 000:987 JLINK_WriteReg(CFBP, 0x00000000)  returns 0x00 (0000ms, 0683ms total)
T1C688 000:987 JLINK_SetBPEx(Addr = 0x20000000, Type = 0xFFFFFFF2)  returns 0x00000007 (0000ms, 0683ms total)
T1C688 000:987 JLINK_Go() -- CPU_WriteMem(4 bytes @ 0xE0002008) -- CPU_WriteMem(4 bytes @ 0xE000200C) -- CPU_WriteMem(4 bytes @ 0xE0002010) -- CPU_WriteMem(4 bytes @ 0xE0002014) -- CPU_WriteMem(4 bytes @ 0xE0002018) -- CPU_WriteMem(4 bytes @ 0xE000201C) (0010ms, 0693ms total)
T1C688 000:997 JLINK_IsHalted()  returns FALSE (0001ms, 0694ms total)
T1C688 001:048 JLINK_IsHalted() -- CPU_ReadMem(2 bytes @ 0x20000000)  returns TRUE (0006ms, 0699ms total)
T1C688 001:054 JLINK_ReadReg(R15)  returns 0x20000000 (0000ms, 0693ms total)
T1C688 001:054 JLINK_ClrBPEx(BPHandle = 0x00000007)  returns 0x00 (0000ms, 0693ms total)
T1C688 001:054 JLINK_ReadReg(R0)  returns 0x00000000 (0000ms, 0693ms total)
T1C688 001:056 JLINK_WriteMem(0x20000164, 0x0400 Bytes, ...) -- Data:  FF F7 74 FF B0 B1 28 46 FF F7 98 FF FF F7 6E FF ... -- CPU_WriteMem(1024 bytes @ 0x20000164)  returns 0x400 (0007ms, 0700ms total)
T1C688 001:063 JLINK_WriteReg(R0, 0x08000C00)  returns 0x00 (0000ms, 0700ms total)
T1C688 001:063 JLINK_WriteReg(R1, 0x00000400)  returns 0x00 (0001ms, 0701ms total)
T1C688 001:064 JLINK_WriteReg(R2, 0x20000164)  returns 0x00 (0000ms, 0701ms total)
T1C688 001:064 JLINK_WriteReg(R3, 0x00000000)  returns 0x00 (0000ms, 0701ms total)
T1C688 001:064 JLINK_WriteReg(R4, 0x00000000)  returns 0x00 (0000ms, 0701ms total)
T1C688 001:064 JLINK_WriteReg(R5, 0x00000000)  returns 0x00 (0000ms, 0701ms total)
T1C688 001:064 JLINK_WriteReg(R6, 0x00000000)  returns 0x00 (0000ms, 0701ms total)
T1C688 001:064 JLINK_WriteReg(R7, 0x00000000)  returns 0x00 (0000ms, 0701ms total)
T1C688 001:064 JLINK_WriteReg(R8, 0x00000000)  returns 0x00 (0000ms, 0701ms total)
T1C688 001:064 JLINK_WriteReg(R9, 0x20000160)  returns 0x00 (0000ms, 0701ms total)
T1C688 001:064 JLINK_WriteReg(R10, 0x00000000)  returns 0x00 (0000ms, 0701ms total)
T1C688 001:064 JLINK_WriteReg(R11, 0x00000000)  returns 0x00 (0000ms, 0701ms total)
T1C688 001:064 JLINK_WriteReg(R12, 0x00000000)  returns 0x00 (0000ms, 0701ms total)
T1C688 001:064 JLINK_WriteReg(R13, 0x20000800)  returns 0x00 (0000ms, 0701ms total)
T1C688 001:064 JLINK_WriteReg(R14, 0x20000001)  returns 0x00 (0000ms, 0701ms total)
T1C688 001:064 JLINK_WriteReg(R15, 0x200000F4)  returns 0x00 (0000ms, 0701ms total)
T1C688 001:064 JLINK_WriteReg(XPSR, 0x01000000)  returns 0x00 (0000ms, 0701ms total)
T1C688 001:064 JLINK_WriteReg(MSP, 0x20000800)  returns 0x00 (0000ms, 0701ms total)
T1C688 001:064 JLINK_WriteReg(PSP, 0x20000800)  returns 0x00 (0000ms, 0701ms total)
T1C688 001:064 JLINK_WriteReg(CFBP, 0x00000000)  returns 0x00 (0000ms, 0701ms total)
T1C688 001:064 JLINK_SetBPEx(Addr = 0x20000000, Type = 0xFFFFFFF2)  returns 0x00000008 (0000ms, 0701ms total)
T1C688 001:064 JLINK_Go() -- CPU_WriteMem(4 bytes @ 0xE0002008) -- CPU_WriteMem(4 bytes @ 0xE000200C) -- CPU_WriteMem(4 bytes @ 0xE0002010) -- CPU_WriteMem(4 bytes @ 0xE0002014) -- CPU_WriteMem(4 bytes @ 0xE0002018) -- CPU_WriteMem(4 bytes @ 0xE000201C) (0011ms, 0712ms total)
T1C688 001:075 JLINK_IsHalted()  returns FALSE (0001ms, 0713ms total)
T1C688 001:126 JLINK_IsHalted() -- CPU_ReadMem(2 bytes @ 0x20000000)  returns TRUE (0005ms, 0717ms total)
T1C688 001:131 JLINK_ReadReg(R15)  returns 0x20000000 (0000ms, 0712ms total)
T1C688 001:131 JLINK_ClrBPEx(BPHandle = 0x00000008)  returns 0x00 (0000ms, 0712ms total)
T1C688 001:131 JLINK_ReadReg(R0)  returns 0x00000000 (0000ms, 0712ms total)
T1C688 001:133 JLINK_WriteMem(0x20000164, 0x0400 Bytes, ...) -- Data:  2D E9 F0 43 5A 4B 5B 4C 0A 29 5D 88 B3 F8 0A C0 ... -- CPU_WriteMem(1024 bytes @ 0x20000164)  returns 0x400 (0008ms, 0720ms total)
T1C688 001:141 JLINK_WriteReg(R0, 0x08001000)  returns 0x00 (0000ms, 0720ms total)
T1C688 001:141 JLINK_WriteReg(R1, 0x00000400)  returns 0x00 (0000ms, 0720ms total)
T1C688 001:141 JLINK_WriteReg(R2, 0x20000164)  returns 0x00 (0000ms, 0720ms total)
T1C688 001:141 JLINK_WriteReg(R3, 0x00000000)  returns 0x00 (0000ms, 0720ms total)
T1C688 001:141 JLINK_WriteReg(R4, 0x00000000)  returns 0x00 (0000ms, 0720ms total)
T1C688 001:141 JLINK_WriteReg(R5, 0x00000000)  returns 0x00 (0000ms, 0720ms total)
T1C688 001:141 JLINK_WriteReg(R6, 0x00000000)  returns 0x00 (0000ms, 0720ms total)
T1C688 001:141 JLINK_WriteReg(R7, 0x00000000)  returns 0x00 (0000ms, 0720ms total)
T1C688 001:142 JLINK_WriteReg(R8, 0x00000000)  returns 0x00 (0000ms, 0720ms total)
T1C688 001:142 JLINK_WriteReg(R9, 0x20000160)  returns 0x00 (0000ms, 0720ms total)
T1C688 001:142 JLINK_WriteReg(R10, 0x00000000)  returns 0x00 (0000ms, 0720ms total)
T1C688 001:142 JLINK_WriteReg(R11, 0x00000000)  returns 0x00 (0000ms, 0720ms total)
T1C688 001:142 JLINK_WriteReg(R12, 0x00000000)  returns 0x00 (0000ms, 0720ms total)
T1C688 001:142 JLINK_WriteReg(R13, 0x20000800)  returns 0x00 (0000ms, 0720ms total)
T1C688 001:142 JLINK_WriteReg(R14, 0x20000001)  returns 0x00 (0000ms, 0720ms total)
T1C688 001:142 JLINK_WriteReg(R15, 0x200000F4)  returns 0x00 (0000ms, 0720ms total)
T1C688 001:142 JLINK_WriteReg(XPSR, 0x01000000)  returns 0x00 (0000ms, 0720ms total)
T1C688 001:142 JLINK_WriteReg(MSP, 0x20000800)  returns 0x00 (0000ms, 0720ms total)
T1C688 001:142 JLINK_WriteReg(PSP, 0x20000800)  returns 0x00 (0000ms, 0720ms total)
T1C688 001:142 JLINK_WriteReg(CFBP, 0x00000000)  returns 0x00 (0000ms, 0720ms total)
T1C688 001:142 JLINK_SetBPEx(Addr = 0x20000000, Type = 0xFFFFFFF2)  returns 0x00000009 (0000ms, 0720ms total)
T1C688 001:142 JLINK_Go() -- CPU_WriteMem(4 bytes @ 0xE0002008) -- CPU_WriteMem(4 bytes @ 0xE000200C) -- CPU_WriteMem(4 bytes @ 0xE0002010) -- CPU_WriteMem(4 bytes @ 0xE0002014) -- CPU_WriteMem(4 bytes @ 0xE0002018) -- CPU_WriteMem(4 bytes @ 0xE000201C) (0012ms, 0732ms total)
T1C688 001:154 JLINK_IsHalted()  returns FALSE (0001ms, 0733ms total)
T1C688 001:205 JLINK_IsHalted() -- CPU_ReadMem(2 bytes @ 0x20000000)  returns TRUE (0005ms, 0737ms total)
T1C688 001:210 JLINK_ReadReg(R15)  returns 0x20000000 (0000ms, 0732ms total)
T1C688 001:210 JLINK_ClrBPEx(BPHandle = 0x00000009)  returns 0x00 (0000ms, 0732ms total)
T1C688 001:210 JLINK_ReadReg(R0)  returns 0x00000000 (0000ms, 0732ms total)
T1C688 001:212 JLINK_WriteMem(0x20000164, 0x0400 Bytes, ...) -- Data:  C0 B2 28 72 01 28 08 D1 66 71 E8 79 60 70 20 78 ... -- CPU_WriteMem(1024 bytes @ 0x20000164)  returns 0x400 (0007ms, 0739ms total)
T1C688 001:219 JLINK_WriteReg(R0, 0x08001400)  returns 0x00 (0000ms, 0739ms total)
T1C688 001:219 JLINK_WriteReg(R1, 0x00000400)  returns 0x00 (0000ms, 0739ms total)
T1C688 001:219 JLINK_WriteReg(R2, 0x20000164)  returns 0x00 (0000ms, 0739ms total)
T1C688 001:219 JLINK_WriteReg(R3, 0x00000000)  returns 0x00 (0001ms, 0740ms total)
T1C688 001:220 JLINK_WriteReg(R4, 0x00000000)  returns 0x00 (0000ms, 0740ms total)
T1C688 001:220 JLINK_WriteReg(R5, 0x00000000)  returns 0x00 (0000ms, 0740ms total)
T1C688 001:220 JLINK_WriteReg(R6, 0x00000000)  returns 0x00 (0000ms, 0740ms total)
T1C688 001:220 JLINK_WriteReg(R7, 0x00000000)  returns 0x00 (0000ms, 0740ms total)
T1C688 001:220 JLINK_WriteReg(R8, 0x00000000)  returns 0x00 (0000ms, 0740ms total)
T1C688 001:220 JLINK_WriteReg(R9, 0x20000160)  returns 0x00 (0000ms, 0740ms total)
T1C688 001:220 JLINK_WriteReg(R10, 0x00000000)  returns 0x00 (0000ms, 0740ms total)
T1C688 001:220 JLINK_WriteReg(R11, 0x00000000)  returns 0x00 (0000ms, 0740ms total)
T1C688 001:220 JLINK_WriteReg(R12, 0x00000000)  returns 0x00 (0000ms, 0740ms total)
T1C688 001:220 JLINK_WriteReg(R13, 0x20000800)  returns 0x00 (0000ms, 0740ms total)
T1C688 001:220 JLINK_WriteReg(R14, 0x20000001)  returns 0x00 (0000ms, 0740ms total)
T1C688 001:220 JLINK_WriteReg(R15, 0x200000F4)  returns 0x00 (0000ms, 0740ms total)
T1C688 001:220 JLINK_WriteReg(XPSR, 0x01000000)  returns 0x00 (0000ms, 0740ms total)
T1C688 001:220 JLINK_WriteReg(MSP, 0x20000800)  returns 0x00 (0000ms, 0740ms total)
T1C688 001:220 JLINK_WriteReg(PSP, 0x20000800)  returns 0x00 (0000ms, 0740ms total)
T1C688 001:220 JLINK_WriteReg(CFBP, 0x00000000)  returns 0x00 (0000ms, 0740ms total)
T1C688 001:220 JLINK_SetBPEx(Addr = 0x20000000, Type = 0xFFFFFFF2)  returns 0x0000000A (0001ms, 0741ms total)
T1C688 001:221 JLINK_Go() -- CPU_WriteMem(4 bytes @ 0xE0002008) -- CPU_WriteMem(4 bytes @ 0xE000200C) -- CPU_WriteMem(4 bytes @ 0xE0002010) -- CPU_WriteMem(4 bytes @ 0xE0002014) -- CPU_WriteMem(4 bytes @ 0xE0002018) -- CPU_WriteMem(4 bytes @ 0xE000201C) (0011ms, 0752ms total)
T1C688 001:232 JLINK_IsHalted()  returns FALSE (0001ms, 0753ms total)
T1C688 001:283 JLINK_IsHalted() -- CPU_ReadMem(2 bytes @ 0x20000000)  returns TRUE (0005ms, 0757ms total)
T1C688 001:288 JLINK_ReadReg(R15)  returns 0x20000000 (0000ms, 0752ms total)
T1C688 001:288 JLINK_ClrBPEx(BPHandle = 0x0000000A)  returns 0x00 (0000ms, 0752ms total)
T1C688 001:288 JLINK_ReadReg(R0)  returns 0x00000000 (0000ms, 0752ms total)
T1C688 001:290 JLINK_WriteMem(0x20000164, 0x0400 Bytes, ...) -- Data:  0C 48 08 60 A2 74 00 21 BD E8 10 40 01 20 FF F7 ... -- CPU_WriteMem(1024 bytes @ 0x20000164)  returns 0x400 (0008ms, 0760ms total)
T1C688 001:298 JLINK_WriteReg(R0, 0x08001800)  returns 0x00 (0000ms, 0760ms total)
T1C688 001:298 JLINK_WriteReg(R1, 0x00000400)  returns 0x00 (0000ms, 0760ms total)
T1C688 001:298 JLINK_WriteReg(R2, 0x20000164)  returns 0x00 (0000ms, 0760ms total)
T1C688 001:298 JLINK_WriteReg(R3, 0x00000000)  returns 0x00 (0000ms, 0760ms total)
T1C688 001:298 JLINK_WriteReg(R4, 0x00000000)  returns 0x00 (0000ms, 0760ms total)
T1C688 001:298 JLINK_WriteReg(R5, 0x00000000)  returns 0x00 (0000ms, 0760ms total)
T1C688 001:298 JLINK_WriteReg(R6, 0x00000000)  returns 0x00 (0000ms, 0760ms total)
T1C688 001:298 JLINK_WriteReg(R7, 0x00000000)  returns 0x00 (0000ms, 0760ms total)
T1C688 001:298 JLINK_WriteReg(R8, 0x00000000)  returns 0x00 (0000ms, 0760ms total)
T1C688 001:298 JLINK_WriteReg(R9, 0x20000160)  returns 0x00 (0000ms, 0760ms total)
T1C688 001:298 JLINK_WriteReg(R10, 0x00000000)  returns 0x00 (0000ms, 0760ms total)
T1C688 001:298 JLINK_WriteReg(R11, 0x00000000)  returns 0x00 (0000ms, 0760ms total)
T1C688 001:298 JLINK_WriteReg(R12, 0x00000000)  returns 0x00 (0000ms, 0760ms total)
T1C688 001:298 JLINK_WriteReg(R13, 0x20000800)  returns 0x00 (0000ms, 0760ms total)
T1C688 001:298 JLINK_WriteReg(R14, 0x20000001)  returns 0x00 (0000ms, 0760ms total)
T1C688 001:298 JLINK_WriteReg(R15, 0x200000F4)  returns 0x00 (0000ms, 0760ms total)
T1C688 001:298 JLINK_WriteReg(XPSR, 0x01000000)  returns 0x00 (0000ms, 0760ms total)
T1C688 001:299 JLINK_WriteReg(MSP, 0x20000800)  returns 0x00 (0000ms, 0761ms total)
T1C688 001:299 JLINK_WriteReg(PSP, 0x20000800)  returns 0x00 (0000ms, 0761ms total)
T1C688 001:299 JLINK_WriteReg(CFBP, 0x00000000)  returns 0x00 (0000ms, 0761ms total)
T1C688 001:299 JLINK_SetBPEx(Addr = 0x20000000, Type = 0xFFFFFFF2)  returns 0x0000000B (0000ms, 0761ms total)
T1C688 001:299 JLINK_Go() -- CPU_WriteMem(4 bytes @ 0xE0002008) -- CPU_WriteMem(4 bytes @ 0xE000200C) -- CPU_WriteMem(4 bytes @ 0xE0002010) -- CPU_WriteMem(4 bytes @ 0xE0002014) -- CPU_WriteMem(4 bytes @ 0xE0002018) -- CPU_WriteMem(4 bytes @ 0xE000201C) (0010ms, 0771ms total)
T1C688 001:309 JLINK_IsHalted()  returns FALSE (0002ms, 0773ms total)
T1C688 001:361 JLINK_IsHalted() -- CPU_ReadMem(2 bytes @ 0x20000000)  returns TRUE (0005ms, 0776ms total)
T1C688 001:366 JLINK_ReadReg(R15)  returns 0x20000000 (0000ms, 0771ms total)
T1C688 001:366 JLINK_ClrBPEx(BPHandle = 0x0000000B)  returns 0x00 (0000ms, 0771ms total)
T1C688 001:366 JLINK_ReadReg(R0)  returns 0x00000000 (0000ms, 0771ms total)
T1C688 001:368 JLINK_WriteMem(0x20000164, 0x0400 Bytes, ...) -- Data:  00 F0 4C FB DF F8 08 83 08 F1 14 08 40 46 00 F0 ... -- CPU_WriteMem(1024 bytes @ 0x20000164)  returns 0x400 (0008ms, 0780ms total)
T1C688 001:376 JLINK_WriteReg(R0, 0x08001C00)  returns 0x00 (0000ms, 0780ms total)
T1C688 001:376 JLINK_WriteReg(R1, 0x00000400)  returns 0x00 (0000ms, 0780ms total)
T1C688 001:376 JLINK_WriteReg(R2, 0x20000164)  returns 0x00 (0000ms, 0780ms total)
T1C688 001:376 JLINK_WriteReg(R3, 0x00000000)  returns 0x00 (0000ms, 0780ms total)
T1C688 001:376 JLINK_WriteReg(R4, 0x00000000)  returns 0x00 (0000ms, 0780ms total)
T1C688 001:376 JLINK_WriteReg(R5, 0x00000000)  returns 0x00 (0000ms, 0780ms total)
T1C688 001:376 JLINK_WriteReg(R6, 0x00000000)  returns 0x00 (0000ms, 0780ms total)
T1C688 001:376 JLINK_WriteReg(R7, 0x00000000)  returns 0x00 (0000ms, 0780ms total)
T1C688 001:376 JLINK_WriteReg(R8, 0x00000000)  returns 0x00 (0000ms, 0780ms total)
T1C688 001:376 JLINK_WriteReg(R9, 0x20000160)  returns 0x00 (0000ms, 0780ms total)
T1C688 001:376 JLINK_WriteReg(R10, 0x00000000)  returns 0x00 (0000ms, 0780ms total)
T1C688 001:376 JLINK_WriteReg(R11, 0x00000000)  returns 0x00 (0000ms, 0780ms total)
T1C688 001:376 JLINK_WriteReg(R12, 0x00000000)  returns 0x00 (0000ms, 0780ms total)
T1C688 001:376 JLINK_WriteReg(R13, 0x20000800)  returns 0x00 (0000ms, 0780ms total)
T1C688 001:376 JLINK_WriteReg(R14, 0x20000001)  returns 0x00 (0000ms, 0780ms total)
T1C688 001:376 JLINK_WriteReg(R15, 0x200000F4)  returns 0x00 (0001ms, 0781ms total)
T1C688 001:377 JLINK_WriteReg(XPSR, 0x01000000)  returns 0x00 (0000ms, 0781ms total)
T1C688 001:377 JLINK_WriteReg(MSP, 0x20000800)  returns 0x00 (0000ms, 0781ms total)
T1C688 001:377 JLINK_WriteReg(PSP, 0x20000800)  returns 0x00 (0000ms, 0781ms total)
T1C688 001:377 JLINK_WriteReg(CFBP, 0x00000000)  returns 0x00 (0000ms, 0781ms total)
T1C688 001:377 JLINK_SetBPEx(Addr = 0x20000000, Type = 0xFFFFFFF2)  returns 0x0000000C (0000ms, 0781ms total)
T1C688 001:377 JLINK_Go() -- CPU_WriteMem(4 bytes @ 0xE0002008) -- CPU_WriteMem(4 bytes @ 0xE000200C) -- CPU_WriteMem(4 bytes @ 0xE0002010) -- CPU_WriteMem(4 bytes @ 0xE0002014) -- CPU_WriteMem(4 bytes @ 0xE0002018) -- CPU_WriteMem(4 bytes @ 0xE000201C) (0010ms, 0791ms total)
T1C688 001:387 JLINK_IsHalted()  returns FALSE (0001ms, 0792ms total)
T1C688 001:438 JLINK_IsHalted() -- CPU_ReadMem(2 bytes @ 0x20000000)  returns TRUE (0005ms, 0796ms total)
T1C688 001:443 JLINK_ReadReg(R15)  returns 0x20000000 (0000ms, 0791ms total)
T1C688 001:443 JLINK_ClrBPEx(BPHandle = 0x0000000C)  returns 0x00 (0000ms, 0791ms total)
T1C688 001:443 JLINK_ReadReg(R0)  returns 0x00000000 (0000ms, 0791ms total)
T1C688 001:445 JLINK_WriteMem(0x20000164, 0x0400 Bytes, ...) -- Data:  00 22 CC 78 04 F0 0F 03 E4 06 01 D5 8C 78 23 43 ... -- CPU_WriteMem(1024 bytes @ 0x20000164)  returns 0x400 (0008ms, 0800ms total)
T1C688 001:453 JLINK_WriteReg(R0, 0x08002000)  returns 0x00 (0000ms, 0800ms total)
T1C688 001:453 JLINK_WriteReg(R1, 0x00000400)  returns 0x00 (0000ms, 0800ms total)
T1C688 001:453 JLINK_WriteReg(R2, 0x20000164)  returns 0x00 (0000ms, 0800ms total)
T1C688 001:453 JLINK_WriteReg(R3, 0x00000000)  returns 0x00 (0000ms, 0800ms total)
T1C688 001:453 JLINK_WriteReg(R4, 0x00000000)  returns 0x00 (0000ms, 0800ms total)
T1C688 001:453 JLINK_WriteReg(R5, 0x00000000)  returns 0x00 (0000ms, 0800ms total)
T1C688 001:453 JLINK_WriteReg(R6, 0x00000000)  returns 0x00 (0000ms, 0800ms total)
T1C688 001:453 JLINK_WriteReg(R7, 0x00000000)  returns 0x00 (0000ms, 0800ms total)
T1C688 001:453 JLINK_WriteReg(R8, 0x00000000)  returns 0x00 (0000ms, 0800ms total)
T1C688 001:453 JLINK_WriteReg(R9, 0x20000160)  returns 0x00 (0000ms, 0800ms total)
T1C688 001:453 JLINK_WriteReg(R10, 0x00000000)  returns 0x00 (0000ms, 0800ms total)
T1C688 001:453 JLINK_WriteReg(R11, 0x00000000)  returns 0x00 (0000ms, 0800ms total)
T1C688 001:453 JLINK_WriteReg(R12, 0x00000000)  returns 0x00 (0000ms, 0800ms total)
T1C688 001:454 JLINK_WriteReg(R13, 0x20000800)  returns 0x00 (0000ms, 0800ms total)
T1C688 001:454 JLINK_WriteReg(R14, 0x20000001)  returns 0x00 (0000ms, 0800ms total)
T1C688 001:454 JLINK_WriteReg(R15, 0x200000F4)  returns 0x00 (0000ms, 0800ms total)
T1C688 001:454 JLINK_WriteReg(XPSR, 0x01000000)  returns 0x00 (0000ms, 0800ms total)
T1C688 001:454 JLINK_WriteReg(MSP, 0x20000800)  returns 0x00 (0000ms, 0800ms total)
T1C688 001:454 JLINK_WriteReg(PSP, 0x20000800)  returns 0x00 (0000ms, 0800ms total)
T1C688 001:454 JLINK_WriteReg(CFBP, 0x00000000)  returns 0x00 (0000ms, 0800ms total)
T1C688 001:454 JLINK_SetBPEx(Addr = 0x20000000, Type = 0xFFFFFFF2)  returns 0x0000000D (0000ms, 0800ms total)
T1C688 001:454 JLINK_Go() -- CPU_WriteMem(4 bytes @ 0xE0002008) -- CPU_WriteMem(4 bytes @ 0xE000200C) -- CPU_WriteMem(4 bytes @ 0xE0002010) -- CPU_WriteMem(4 bytes @ 0xE0002014) -- CPU_WriteMem(4 bytes @ 0xE0002018) -- CPU_WriteMem(4 bytes @ 0xE000201C) (0011ms, 0811ms total)
T1C688 001:465 JLINK_IsHalted()  returns FALSE (0001ms, 0812ms total)
T1C688 001:516 JLINK_IsHalted() -- CPU_ReadMem(2 bytes @ 0x20000000)  returns TRUE (0005ms, 0816ms total)
T1C688 001:521 JLINK_ReadReg(R15)  returns 0x20000000 (0000ms, 0811ms total)
T1C688 001:521 JLINK_ClrBPEx(BPHandle = 0x0000000D)  returns 0x00 (0000ms, 0811ms total)
T1C688 001:521 JLINK_ReadReg(R0)  returns 0x00000000 (0000ms, 0811ms total)
T1C688 001:523 JLINK_WriteMem(0x20000164, 0x0400 Bytes, ...) -- Data:  1A B1 82 8A 0A 43 82 82 70 47 82 8A 8A 43 82 82 ... -- CPU_WriteMem(1024 bytes @ 0x20000164)  returns 0x400 (0008ms, 0819ms total)
T1C688 001:531 JLINK_WriteReg(R0, 0x08002400)  returns 0x00 (0000ms, 0819ms total)
T1C688 001:531 JLINK_WriteReg(R1, 0x000003EC)  returns 0x00 (0000ms, 0819ms total)
T1C688 001:531 JLINK_WriteReg(R2, 0x20000164)  returns 0x00 (0000ms, 0819ms total)
T1C688 001:531 JLINK_WriteReg(R3, 0x00000000)  returns 0x00 (0001ms, 0820ms total)
T1C688 001:532 JLINK_WriteReg(R4, 0x00000000)  returns 0x00 (0000ms, 0820ms total)
T1C688 001:532 JLINK_WriteReg(R5, 0x00000000)  returns 0x00 (0000ms, 0820ms total)
T1C688 001:532 JLINK_WriteReg(R6, 0x00000000)  returns 0x00 (0000ms, 0820ms total)
T1C688 001:532 JLINK_WriteReg(R7, 0x00000000)  returns 0x00 (0000ms, 0820ms total)
T1C688 001:532 JLINK_WriteReg(R8, 0x00000000)  returns 0x00 (0000ms, 0820ms total)
T1C688 001:532 JLINK_WriteReg(R9, 0x20000160)  returns 0x00 (0000ms, 0820ms total)
T1C688 001:532 JLINK_WriteReg(R10, 0x00000000)  returns 0x00 (0000ms, 0820ms total)
T1C688 001:532 JLINK_WriteReg(R11, 0x00000000)  returns 0x00 (0000ms, 0820ms total)
T1C688 001:532 JLINK_WriteReg(R12, 0x00000000)  returns 0x00 (0000ms, 0820ms total)
T1C688 001:532 JLINK_WriteReg(R13, 0x20000800)  returns 0x00 (0000ms, 0820ms total)
T1C688 001:532 JLINK_WriteReg(R14, 0x20000001)  returns 0x00 (0000ms, 0820ms total)
T1C688 001:532 JLINK_WriteReg(R15, 0x200000F4)  returns 0x00 (0000ms, 0820ms total)
T1C688 001:532 JLINK_WriteReg(XPSR, 0x01000000)  returns 0x00 (0000ms, 0820ms total)
T1C688 001:532 JLINK_WriteReg(MSP, 0x20000800)  returns 0x00 (0000ms, 0820ms total)
T1C688 001:532 JLINK_WriteReg(PSP, 0x20000800)  returns 0x00 (0000ms, 0820ms total)
T1C688 001:532 JLINK_WriteReg(CFBP, 0x00000000)  returns 0x00 (0000ms, 0820ms total)
T1C688 001:532 JLINK_SetBPEx(Addr = 0x20000000, Type = 0xFFFFFFF2)  returns 0x0000000E (0000ms, 0820ms total)
T1C688 001:532 JLINK_Go() -- CPU_WriteMem(4 bytes @ 0xE0002008) -- CPU_WriteMem(4 bytes @ 0xE000200C) -- CPU_WriteMem(4 bytes @ 0xE0002010) -- CPU_WriteMem(4 bytes @ 0xE0002014) -- CPU_WriteMem(4 bytes @ 0xE0002018) -- CPU_WriteMem(4 bytes @ 0xE000201C) (0011ms, 0831ms total)
T1C688 001:543 JLINK_IsHalted()  returns FALSE (0001ms, 0832ms total)
T1C688 001:594 JLINK_IsHalted() -- CPU_ReadMem(2 bytes @ 0x20000000)  returns TRUE (0005ms, 0836ms total)
T1C688 001:599 JLINK_ReadReg(R15)  returns 0x20000000 (0000ms, 0831ms total)
T1C688 001:599 JLINK_ClrBPEx(BPHandle = 0x0000000E)  returns 0x00 (0000ms, 0831ms total)
T1C688 001:599 JLINK_ReadReg(R0)  returns 0x00000000 (0000ms, 0831ms total)
T1C688 001:599 JLINK_WriteReg(R0, 0x00000002)  returns 0x00 (0000ms, 0831ms total)
T1C688 001:599 JLINK_WriteReg(R1, 0x000003EC)  returns 0x00 (0000ms, 0831ms total)
T1C688 001:599 JLINK_WriteReg(R2, 0x20000164)  returns 0x00 (0000ms, 0831ms total)
T1C688 001:599 JLINK_WriteReg(R3, 0x00000000)  returns 0x00 (0000ms, 0831ms total)
T1C688 001:599 JLINK_WriteReg(R4, 0x00000000)  returns 0x00 (0000ms, 0831ms total)
T1C688 001:599 JLINK_WriteReg(R5, 0x00000000)  returns 0x00 (0001ms, 0832ms total)
T1C688 001:600 JLINK_WriteReg(R6, 0x00000000)  returns 0x00 (0000ms, 0832ms total)
T1C688 001:600 JLINK_WriteReg(R7, 0x00000000)  returns 0x00 (0000ms, 0832ms total)
T1C688 001:600 JLINK_WriteReg(R8, 0x00000000)  returns 0x00 (0000ms, 0832ms total)
T1C688 001:600 JLINK_WriteReg(R9, 0x20000160)  returns 0x00 (0000ms, 0832ms total)
T1C688 001:600 JLINK_WriteReg(R10, 0x00000000)  returns 0x00 (0000ms, 0832ms total)
T1C688 001:600 JLINK_WriteReg(R11, 0x00000000)  returns 0x00 (0000ms, 0832ms total)
T1C688 001:600 JLINK_WriteReg(R12, 0x00000000)  returns 0x00 (0000ms, 0832ms total)
T1C688 001:600 JLINK_WriteReg(R13, 0x20000800)  returns 0x00 (0000ms, 0832ms total)
T1C688 001:600 JLINK_WriteReg(R14, 0x20000001)  returns 0x00 (0000ms, 0832ms total)
T1C688 001:600 JLINK_WriteReg(R15, 0x2000006A)  returns 0x00 (0000ms, 0832ms total)
T1C688 001:600 JLINK_WriteReg(XPSR, 0x01000000)  returns 0x00 (0000ms, 0832ms total)
T1C688 001:600 JLINK_WriteReg(MSP, 0x20000800)  returns 0x00 (0000ms, 0832ms total)
T1C688 001:600 JLINK_WriteReg(PSP, 0x20000800)  returns 0x00 (0000ms, 0832ms total)
T1C688 001:600 JLINK_WriteReg(CFBP, 0x00000000)  returns 0x00 (0000ms, 0832ms total)
T1C688 001:600 JLINK_SetBPEx(Addr = 0x20000000, Type = 0xFFFFFFF2)  returns 0x0000000F (0000ms, 0832ms total)
T1C688 001:600 JLINK_Go() -- CPU_WriteMem(4 bytes @ 0xE0002008) -- CPU_WriteMem(4 bytes @ 0xE000200C) -- CPU_WriteMem(4 bytes @ 0xE0002010) -- CPU_WriteMem(4 bytes @ 0xE0002014) -- CPU_WriteMem(4 bytes @ 0xE0002018) -- CPU_WriteMem(4 bytes @ 0xE000201C) (0010ms, 0842ms total)
T1C688 001:610 JLINK_IsHalted() -- CPU_ReadMem(2 bytes @ 0x20000000)  returns TRUE (0005ms, 0847ms total)
T1C688 001:615 JLINK_ReadReg(R15)  returns 0x20000000 (0000ms, 0842ms total)
T1C688 001:615 JLINK_ClrBPEx(BPHandle = 0x0000000F)  returns 0x00 (0000ms, 0842ms total)
T1C688 001:615 JLINK_ReadReg(R0)  returns 0x00000000 (0000ms, 0842ms total)
T1C688 001:678 JLINK_WriteMem(0x20000000, 0x0164 Bytes, ...) -- Data:  00 BE 0A E0 0D 78 2D 06 68 40 08 24 40 00 00 D3 ... -- CPU_WriteMem(356 bytes @ 0x20000000)  returns 0x164 (0004ms, 0846ms total)
T1C688 001:682 JLINK_WriteReg(R0, 0x08000000)  returns 0x00 (0000ms, 0846ms total)
T1C688 001:682 JLINK_WriteReg(R1, 0x007A1200)  returns 0x00 (0000ms, 0846ms total)
T1C688 001:682 JLINK_WriteReg(R2, 0x00000003)  returns 0x00 (0000ms, 0846ms total)
T1C688 001:682 JLINK_WriteReg(R3, 0x00000000)  returns 0x00 (0000ms, 0846ms total)
T1C688 001:682 JLINK_WriteReg(R4, 0x00000000)  returns 0x00 (0000ms, 0846ms total)
T1C688 001:682 JLINK_WriteReg(R5, 0x00000000)  returns 0x00 (0000ms, 0846ms total)
T1C688 001:682 JLINK_WriteReg(R6, 0x00000000)  returns 0x00 (0000ms, 0846ms total)
T1C688 001:682 JLINK_WriteReg(R7, 0x00000000)  returns 0x00 (0000ms, 0846ms total)
T1C688 001:682 JLINK_WriteReg(R8, 0x00000000)  returns 0x00 (0000ms, 0846ms total)
T1C688 001:682 JLINK_WriteReg(R9, 0x20000160)  returns 0x00 (0000ms, 0846ms total)
T1C688 001:682 JLINK_WriteReg(R10, 0x00000000)  returns 0x00 (0000ms, 0846ms total)
T1C688 001:682 JLINK_WriteReg(R11, 0x00000000)  returns 0x00 (0000ms, 0846ms total)
T1C688 001:682 JLINK_WriteReg(R12, 0x00000000)  returns 0x00 (0000ms, 0846ms total)
T1C688 001:682 JLINK_WriteReg(R13, 0x20000800)  returns 0x00 (0000ms, 0846ms total)
T1C688 001:683 JLINK_WriteReg(R14, 0x20000001)  returns 0x00 (0000ms, 0846ms total)
T1C688 001:683 JLINK_WriteReg(R15, 0x20000038)  returns 0x00 (0000ms, 0846ms total)
T1C688 001:683 JLINK_WriteReg(XPSR, 0x01000000)  returns 0x00 (0000ms, 0846ms total)
T1C688 001:683 JLINK_WriteReg(MSP, 0x20000800)  returns 0x00 (0000ms, 0846ms total)
T1C688 001:683 JLINK_WriteReg(PSP, 0x20000800)  returns 0x00 (0000ms, 0846ms total)
T1C688 001:683 JLINK_WriteReg(CFBP, 0x00000000)  returns 0x00 (0000ms, 0846ms total)
T1C688 001:683 JLINK_SetBPEx(Addr = 0x20000000, Type = 0xFFFFFFF2) -- CPU_ReadMem(2 bytes @ 0x20000000)  returns 0x00000010 (0002ms, 0848ms total)
T1C688 001:685 JLINK_Go() -- CPU_WriteMem(2 bytes @ 0x20000000) -- CPU_WriteMem(4 bytes @ 0xE0002008) -- CPU_WriteMem(4 bytes @ 0xE000200C) -- CPU_WriteMem(4 bytes @ 0xE0002010) -- CPU_WriteMem(4 bytes @ 0xE0002014) -- CPU_WriteMem(4 bytes @ 0xE0002018) -- CPU_WriteMem(4 bytes @ 0xE000201C) (0011ms, 0859ms total)
T1C688 001:697 JLINK_IsHalted() -- CPU_ReadMem(2 bytes @ 0x20000000)  returns TRUE (0005ms, 0865ms total)
T1C688 001:702 JLINK_ReadReg(R15)  returns 0x20000000 (0000ms, 0860ms total)
T1C688 001:702 JLINK_ClrBPEx(BPHandle = 0x00000010)  returns 0x00 (0000ms, 0860ms total)
T1C688 001:702 JLINK_ReadReg(R0)  returns 0x00000000 (0000ms, 0860ms total)
T1C688 001:702 JLINK_WriteReg(R0, 0xFFFFFFFF)  returns 0x00 (0000ms, 0860ms total)
T1C688 001:702 JLINK_WriteReg(R1, 0x08000000)  returns 0x00 (0000ms, 0860ms total)
T1C688 001:702 JLINK_WriteReg(R2, 0x000027EC)  returns 0x00 (0000ms, 0860ms total)
T1C688 001:702 JLINK_WriteReg(R3, 0x04C11DB7)  returns 0x00 (0000ms, 0860ms total)
T1C688 001:702 JLINK_WriteReg(R4, 0x00000000)  returns 0x00 (0000ms, 0860ms total)
T1C688 001:702 JLINK_WriteReg(R5, 0x00000000)  returns 0x00 (0000ms, 0860ms total)
T1C688 001:702 JLINK_WriteReg(R6, 0x00000000)  returns 0x00 (0000ms, 0860ms total)
T1C688 001:702 JLINK_WriteReg(R7, 0x00000000)  returns 0x00 (0000ms, 0860ms total)
T1C688 001:702 JLINK_WriteReg(R8, 0x00000000)  returns 0x00 (0000ms, 0860ms total)
T1C688 001:702 JLINK_WriteReg(R9, 0x20000160)  returns 0x00 (0000ms, 0860ms total)
T1C688 001:702 JLINK_WriteReg(R10, 0x00000000)  returns 0x00 (0000ms, 0860ms total)
T1C688 001:702 JLINK_WriteReg(R11, 0x00000000)  returns 0x00 (0000ms, 0860ms total)
